
T0564 000:001 SEGGER J-Link V6.16c Log File (0000ms, 0001ms total)
T0564 000:001 DLL Compiled: Jun 16 2017 18:14:49 (0000ms, 0001ms total)
T0564 000:001 Logging started @ 2025-04-28 20:52 (0000ms, 0001ms total)
T0564 000:001 JLINK_SetWarnOutHandler(...) (0000ms, 0001ms total)
T0564 000:001 JLINK_OpenEx(...)
Firmware: J-Link V9 compiled May  7 2021 16:26:12
Hardware: V9.20
Feature(s): GDB, RDI, FlashBP, FlashDL, JFlashWEBSRV Webserver running on local port 19080 (0015ms, 0016ms total)
T0564 000:001   returns O.K. (0015ms, 0016ms total)
T0564 000:016 JLINK_GetEmuCaps()  returns 0xB9FF7BBF (0000ms, 0016ms total)
T0564 000:016 JLINK_TIF_GetAvailable(...) (0000ms, 0016ms total)
T0564 000:016 JLINK_SetErrorOutHandler(...) (0000ms, 0016ms total)
T0564 000:016 JLINK_ExecCommand("ProjectFile = "E:\git\STM32F407\实验13 TFT LCD显示实验\USER\JLinkSettings.ini"", ...).   returns 0x00 (0059ms, 0075ms total)
T0564 000:075 JLINK_ExecCommand("Device = STM32F407ZGTx", ...). Device "STM32F407ZG" selected.  returns 0x00 (0001ms, 0076ms total)
T0564 000:076 JLINK_ExecCommand("DisableConnectionTimeout", ...).   returns 0x01 (0000ms, 0076ms total)
T0564 000:076 JLINK_GetHardwareVersion()  returns 0x16760 (0000ms, 0076ms total)
T0564 000:076 JLINK_GetDLLVersion()  returns 61603 (0000ms, 0076ms total)
T0564 000:076 JLINK_GetFirmwareString(...) (0000ms, 0076ms total)
T0564 000:076 JLINK_GetDLLVersion()  returns 61603 (0000ms, 0076ms total)
T0564 000:076 JLINK_GetCompileDateTime() (0000ms, 0076ms total)
T0564 000:076 JLINK_GetFirmwareString(...) (0000ms, 0076ms total)
T0564 000:076 JLINK_GetHardwareVersion()  returns 0x16760 (0000ms, 0076ms total)
T0564 000:076 JLINK_TIF_Select(JLINKARM_TIF_SWD)  returns 0x00 (0003ms, 0079ms total)
T0564 000:079 JLINK_SetSpeed(5000) (0000ms, 0079ms total)
T0564 000:079 JLINK_GetId() >0x10B TIF>Found SW-DP with ID 0x2BA01477 >0x0D TIF> >0x28 TIF> >0x0D TIF> >0x28 TIF> >0x0D TIF> >0x28 TIF> >0x0D TIF> >0x28 TIF> >0x0D TIF> >0x21 TIF> >0x0D TIF> >0x28 TIF> >0x0D TIF> >0x28 TIF> >0x0D TIF> >0x28 TIF> >0x0D TIF> >0x21 TIF> >0x0D TIF> >0x21 TIF> >0x0D TIF> >0x28 TIF> >0x0D TIF> >0x21 TIF> >0x0D TIF> >0x21 TIF> >0x0D TIF> >0x28 TIF> >0x0D TIF> >0x21 TIF> >0x0D TIF> >0x21 TIF> >0x0D TIF> >0x28 TIF> >0x0D TIF> >0x21 TIF> >0x0D TIF> >0x21 TIF> >0x0D TIF> >0x28 TIF>
 >0x0D TIF> >0x21 TIF> >0x0D TIF> >0x21 TIF> >0x0D TIF> >0x28 TIF> >0x0D TIF> >0x21 TIF> >0x0D TIF> >0x21 TIF> >0x10B TIF>Found SW-DP with ID 0x2BA01477 >0x0D TIF> >0x28 TIF> >0x0D TIF> >0x28 TIF> >0x0D TIF> >0x28 TIF> >0x0D TIF> >0x28 TIF> >0x0D TIF> >0x21 TIF> >0x0D TIF> >0x28 TIF>Scanning APs, stopping at first AHB-AP found. >0x0D TIF> >0x28 TIF> >0x0D TIF> >0x21 TIF> >0x0D TIF> >0x21 TIF>AP[0] IDR: 0x24770011 (AHB-AP) >0x0D TIF> >0x28 TIF> >0x0D TIF> >0x21 TIF> >0x0D TIF> >0x21 TIF>
AHB-AP ROM: 0xE00FF000 (Base addr. of first ROM table) >0x0D TIF> >0x28 TIF> >0x0D TIF> >0x28 TIF> >0x0D TIF> >0x28 TIF> >0x0D TIF> >0x21 TIF> >0x0D TIF> >0x21 TIF> >0x0D TIF> >0x28 TIF> >0x0D TIF> >0x21 TIF> >0x0D TIF> >0x21 TIF>CPUID reg: 0x410FC241. Implementer code: 0x41 (ARM)Found Cortex-M4 r0p1, Little endian. -- CPU_ReadMem(4 bytes @ 0xE000EDF0) -- CPU_WriteMem(4 bytes @ 0xE000EDF0) -- CPU_ReadMem(4 bytes @ 0xE0002000)FPUnit: 6 code (BP) slots and 2 literal slots
 -- CPU_ReadMem(4 bytes @ 0xE000EDFC) -- CPU_WriteMem(4 bytes @ 0xE000EDFC) -- CPU_ReadMem(4 bytes @ 0xE0001000) -- CPU_WriteMem(4 bytes @ 0xE0001000) -- CPU_ReadMem(4 bytes @ 0xE000ED88) -- CPU_WriteMem(4 bytes @ 0xE000ED88) -- CPU_ReadMem(4 bytes @ 0xE000ED88) -- CPU_WriteMem(4 bytes @ 0xE000ED88)CoreSight components:ROMTbl[0] @ E00FF000 -- CPU_ReadMem(16 bytes @ 0xE00FF000) -- CPU_ReadMem(16 bytes @ 0xE000EFF0) -- CPU_ReadMem(16 bytes @ 0xE000EFE0)
ROMTbl[0][0]: E000E000, CID: B105E00D, PID: 000BB00C SCS -- CPU_ReadMem(16 bytes @ 0xE0001FF0) -- CPU_ReadMem(16 bytes @ 0xE0001FE0)ROMTbl[0][1]: E0001000, CID: B105E00D, PID: 003BB002 DWT -- CPU_ReadMem(16 bytes @ 0xE0002FF0) -- CPU_ReadMem(16 bytes @ 0xE0002FE0)ROMTbl[0][2]: E0002000, CID: B105E00D, PID: 002BB003 FPB -- CPU_ReadMem(16 bytes @ 0xE0000FF0) -- CPU_ReadMem(16 bytes @ 0xE0000FE0)ROMTbl[0][3]: E0000000, CID: B105E00D, PID: 003BB001 ITM -- CPU_ReadMem(16 bytes @ 0xE00FF010)
 -- CPU_ReadMem(16 bytes @ 0xE0040FF0) -- CPU_ReadMem(16 bytes @ 0xE0040FE0)ROMTbl[0][4]: E0040000, CID: B105900D, PID: 000BB9A1 TPIU -- CPU_ReadMem(16 bytes @ 0xE0041FF0) -- CPU_ReadMem(16 bytes @ 0xE0041FE0)ROMTbl[0][5]: E0041000, CID: B105900D, PID: 000BB925 ETM >0x0D TIF> >0x21 TIF>  returns 0x2BA01477 (0051ms, 0130ms total)
T0564 000:130 JLINK_GetDLLVersion()  returns 61603 (0000ms, 0130ms total)
T0564 000:130 JLINK_CORE_GetFound()  returns 0xE0000FF (0000ms, 0130ms total)
T0564 000:130 JLINK_GetDebugInfo(0x100 = JLINKARM_ROM_TABLE_ADDR_INDEX) -- Value=0xE00FF000  returns 0x00 (0000ms, 0130ms total)
T0564 000:130 JLINK_GetDebugInfo(0x100 = JLINKARM_ROM_TABLE_ADDR_INDEX) -- Value=0xE00FF000  returns 0x00 (0001ms, 0131ms total)
T0564 000:131 JLINK_GetDebugInfo(0x101 = JLINKARM_DEBUG_INFO_ETM_ADDR_INDEX) -- Value=0xE0041000  returns 0x00 (0000ms, 0131ms total)
T0564 000:131 JLINK_ReadMemEx(0xE0041FD0, 0x0020 Bytes, ..., Flags = 0x02000004) -- CPU_ReadMem(32 bytes @ 0xE0041FD0) - Data: 04 00 00 00 00 00 00 00 00 00 00 00 00 00 00 00 ...  returns 0x20 (0000ms, 0131ms total)
T0564 000:131 JLINK_GetDebugInfo(0x102 = JLINKARM_DEBUG_INFO_MTB_ADDR_INDEX) -- Value=0x00000000  returns 0x00 (0000ms, 0131ms total)
T0564 000:131 JLINK_GetDebugInfo(0x103 = JLINKARM_DEBUG_INFO_TPIU_ADDR_INDEX) -- Value=0xE0040000  returns 0x00 (0001ms, 0132ms total)
T0564 000:132 JLINK_GetDebugInfo(0x104 = JLINKARM_DEBUG_INFO_ITM_ADDR_INDEX) -- Value=0xE0000000  returns 0x00 (0000ms, 0132ms total)
T0564 000:132 JLINK_GetDebugInfo(0x105 = JLINKARM_DEBUG_INFO_DWT_ADDR_INDEX) -- Value=0xE0001000  returns 0x00 (0000ms, 0132ms total)
T0564 000:132 JLINK_GetDebugInfo(0x106 = JLINKARM_DEBUG_INFO_FPB_ADDR_INDEX) -- Value=0xE0002000  returns 0x00 (0000ms, 0132ms total)
T0564 000:132 JLINK_GetDebugInfo(0x107 = JLINKARM_DEBUG_INFO_NVIC_ADDR_INDEX) -- Value=0xE000E000  returns 0x00 (0000ms, 0132ms total)
T0564 000:132 JLINK_GetDebugInfo(0x10C = JLINKARM_DEBUG_INFO_DBG_ADDR_INDEX) -- Value=0xE000EDF0  returns 0x00 (0000ms, 0132ms total)
T0564 000:132 JLINK_ReadMemU32(0xE000EF40, 0x0001 Items, ...) -- CPU_ReadMem(4 bytes @ 0xE000EF40) - Data: 21 00 11 10  returns 0x01 (0001ms, 0133ms total)
T0564 000:133 JLINK_ReadMemU32(0xE000EF44, 0x0001 Items, ...) -- CPU_ReadMem(4 bytes @ 0xE000EF44) - Data: 11 00 00 11  returns 0x01 (0000ms, 0133ms total)
T0564 000:133 JLINK_ReadMemU32(0xE000ED00, 0x0001 Items, ...) -- CPU_ReadMem(4 bytes @ 0xE000ED00) - Data: 41 C2 0F 41  returns 0x01 (0001ms, 0134ms total)
T0564 000:134 JLINK_GetDebugInfo(0x10F = JLINKARM_DEBUG_INFO_HAS_CORTEX_M_SECURITY_EXT_INDEX) -- Value=0x00000000  returns 0x00 (0000ms, 0134ms total)
T0564 000:134 JLINK_SetResetType(JLINKARM_CM3_RESET_TYPE_NORMAL)  returns JLINKARM_CM3_RESET_TYPE_NORMAL (0000ms, 0134ms total)
T0564 000:134 JLINK_Reset() -- CPU is running -- CPU_WriteMem(4 bytes @ 0xE000EDF0) -- CPU is running -- CPU_WriteMem(4 bytes @ 0xE000EDFC) >0x35 TIF>Setting AIRCR.SYSRESETREQ -- CPU is running -- CPU_WriteMem(4 bytes @ 0xE000ED0C) >0x0D TIF> >0x28 TIF> -- CPU_ReadMem(4 bytes @ 0xE000ED0C) -- CPU_ReadMem(4 bytes @ 0xE000EDF0) -- CPU_ReadMem(4 bytes @ 0xE000EDF0) -- CPU_ReadMem(4 bytes @ 0xE000EDF0) -- CPU is running -- CPU_WriteMem(4 bytes @ 0xE000EDF0) -- CPU is running
 -- CPU_WriteMem(4 bytes @ 0xE000EDFC) -- CPU_ReadMem(4 bytes @ 0xE000EDF0) -- CPU_WriteMem(4 bytes @ 0xE0002000) -- CPU_ReadMem(4 bytes @ 0xE000EDFC) -- CPU_ReadMem(4 bytes @ 0xE0001000) (0076ms, 0210ms total)
T0564 000:210 JLINK_ReadReg(R15 (PC))  returns 0x08000228 (0000ms, 0210ms total)
T0564 000:210 JLINK_ReadReg(XPSR)  returns 0x01000000 (0000ms, 0210ms total)
T0564 000:210 JLINK_Halt()  returns 0x00 (0001ms, 0211ms total)
T0564 000:211 JLINK_ReadMemU32(0xE000EDF0, 0x0001 Items, ...) -- CPU_ReadMem(4 bytes @ 0xE000EDF0) - Data: 03 00 03 00  returns 0x01 (0001ms, 0212ms total)
T0564 000:212 JLINK_WriteU32(0xE000EDF0, 0xA05F0003) -- CPU_WriteMem(4 bytes @ 0xE000EDF0)  returns 0x00 (0001ms, 0213ms total)
T0564 000:213 JLINK_WriteU32(0xE000EDFC, 0x01000000) -- CPU_WriteMem(4 bytes @ 0xE000EDFC)  returns 0x00 (0001ms, 0214ms total)
T0564 000:214 JLINK_GetHWStatus(...)  returns 0x00 (0001ms, 0215ms total)
T0564 000:215 JLINK_GetNumBPUnits(Type = 0xFFFFFF00)  returns 0x06 (0000ms, 0215ms total)
T0564 000:215 JLINK_GetNumBPUnits(Type = 0xF0)  returns 0x2000 (0001ms, 0216ms total)
T0564 000:216 JLINK_GetNumWPUnits()  returns 0x04 (0000ms, 0216ms total)
T0564 000:216 JLINK_GetSpeed()  returns 0xFA0 (0000ms, 0216ms total)
T0564 000:216 JLINK_ReadMemU32(0xE000E004, 0x0001 Items, ...) -- CPU_ReadMem(4 bytes @ 0xE000E004) - Data: 02 00 00 00  returns 0x01 (0001ms, 0217ms total)
T0564 000:217 JLINK_ReadMemU32(0xE000E004, 0x0001 Items, ...) -- CPU_ReadMem(4 bytes @ 0xE000E004) - Data: 02 00 00 00  returns 0x01 (0001ms, 0218ms total)
T0564 000:218 JLINK_WriteMemEx(0xE0001000, 0x001C Bytes, ..., Flags = 0x02000004) - Data: 01 00 00 00 00 00 00 00 00 00 00 00 00 00 00 00 ... -- CPU_WriteMem(28 bytes @ 0xE0001000)  returns 0x1C (0002ms, 0220ms total)
T0564 000:220 JLINK_ReadReg(R15 (PC))  returns 0x08000228 (0000ms, 0220ms total)
T0564 000:220 JLINK_ReadReg(XPSR)  returns 0x01000000 (0000ms, 0220ms total)
T0564 000:311 JLINK_SetResetType(JLINKARM_CM3_RESET_TYPE_NORMAL)  returns JLINKARM_CM3_RESET_TYPE_NORMAL (0000ms, 0220ms total)
T0564 000:311 JLINK_Reset() -- CPU_WriteMem(4 bytes @ 0xE000EDF0) -- CPU_WriteMem(4 bytes @ 0xE000EDFC) >0x35 TIF>Setting AIRCR.SYSRESETREQ -- CPU_WriteMem(4 bytes @ 0xE000ED0C) >0x0D TIF> >0x28 TIF> -- CPU_ReadMem(4 bytes @ 0xE000ED0C) -- CPU_ReadMem(4 bytes @ 0xE000EDF0) -- CPU_ReadMem(4 bytes @ 0xE000EDF0) -- CPU_ReadMem(4 bytes @ 0xE000EDF0) -- CPU_WriteMem(4 bytes @ 0xE000EDF0) -- CPU_WriteMem(4 bytes @ 0xE000EDFC) -- CPU_ReadMem(4 bytes @ 0xE000EDF0) -- CPU_WriteMem(4 bytes @ 0xE0002000)
 -- CPU_ReadMem(4 bytes @ 0xE000EDFC) -- CPU_ReadMem(4 bytes @ 0xE0001000) (0076ms, 0296ms total)
T0564 000:388 JLINK_ReadReg(R15 (PC))  returns 0x08000228 (0000ms, 0296ms total)
T0564 000:388 JLINK_ReadReg(XPSR)  returns 0x01000000 (0000ms, 0296ms total)
T0564 000:388 JLINK_ReadMemEx(0x08000228, 0x003C Bytes, ..., Flags = 0x02000000) -- CPU_ReadMem(128 bytes @ 0x08000200) -- Updating C cache (128 bytes @ 0x08000200) -- Read from C cache (60 bytes @ 0x08000228) - Data: 0C 48 01 68 41 F4 70 01 01 60 0B 48 80 47 0B 48 ...  returns 0x3C (0002ms, 0298ms total)
T322C 001:305 JLINK_ReadMemEx(0x08000228, 0x0002 Bytes, ..., Flags = 0x02000000) -- Read from C cache (2 bytes @ 0x08000228) - Data: 0C 48  returns 0x02 (0000ms, 0298ms total)
T322C 001:305 JLINK_SetBPEx(Addr = 0x08024FEC, Type = 0xFFFFFFF2)  returns 0x00000001 (0000ms, 0298ms total)
T322C 001:305 JLINK_Go() -- CPU_WriteMem(4 bytes @ 0xE0002000) -- CPU_ReadMem(4 bytes @ 0xE0001000) -- CPU_WriteMem(4 bytes @ 0xE0002008) -- CPU_WriteMem(4 bytes @ 0xE000200C) -- CPU_WriteMem(4 bytes @ 0xE0002010) -- CPU_WriteMem(4 bytes @ 0xE0002014) -- CPU_WriteMem(4 bytes @ 0xE0002018) -- CPU_WriteMem(4 bytes @ 0xE000201C) -- CPU_WriteMem(4 bytes @ 0xE0001004) (0005ms, 0303ms total)
T322C 001:411 JLINK_IsHalted()  returns TRUE (0004ms, 0307ms total)
T322C 001:415 JLINK_Halt()  returns 0x00 (0000ms, 0303ms total)
T322C 001:415 JLINK_IsHalted()  returns TRUE (0000ms, 0303ms total)
T322C 001:415 JLINK_IsHalted()  returns TRUE (0000ms, 0303ms total)
T322C 001:415 JLINK_IsHalted()  returns TRUE (0000ms, 0303ms total)
T322C 001:415 JLINK_ReadReg(R15 (PC))  returns 0x08024FEC (0000ms, 0303ms total)
T322C 001:415 JLINK_ReadReg(XPSR)  returns 0x21000000 (0000ms, 0303ms total)
T322C 001:415 JLINK_ClrBPEx(BPHandle = 0x00000001)  returns 0x00 (0000ms, 0303ms total)
T322C 001:415 JLINK_ReadMemU32(0xE000ED30, 0x0001 Items, ...) -- CPU_ReadMem(4 bytes @ 0xE000ED30) - Data: 02 00 00 00  returns 0x01 (0002ms, 0305ms total)
T322C 001:417 JLINK_ReadMemU32(0xE0001028, 0x0001 Items, ...) -- CPU_ReadMem(4 bytes @ 0xE0001028) - Data: 00 00 00 00  returns 0x01 (0001ms, 0306ms total)
T322C 001:418 JLINK_ReadMemU32(0xE0001038, 0x0001 Items, ...) -- CPU_ReadMem(4 bytes @ 0xE0001038) - Data: 00 02 00 00  returns 0x01 (0001ms, 0307ms total)
T322C 001:419 JLINK_ReadMemU32(0xE0001048, 0x0001 Items, ...) -- CPU_ReadMem(4 bytes @ 0xE0001048) - Data: 00 00 00 00  returns 0x01 (0001ms, 0308ms total)
T322C 001:420 JLINK_ReadMemU32(0xE0001058, 0x0001 Items, ...) -- CPU_ReadMem(4 bytes @ 0xE0001058) - Data: 00 00 00 00  returns 0x01 (0001ms, 0309ms total)
T322C 001:421 JLINK_ReadReg(R0)  returns 0x200001F0 (0000ms, 0309ms total)
T322C 001:421 JLINK_ReadReg(R1)  returns 0x200003F0 (0000ms, 0309ms total)
T322C 001:421 JLINK_ReadReg(R2)  returns 0x200003F0 (0000ms, 0309ms total)
T322C 001:421 JLINK_ReadReg(R3)  returns 0x200003F0 (0000ms, 0309ms total)
T322C 001:421 JLINK_ReadReg(R4)  returns 0x00000000 (0000ms, 0309ms total)
T322C 001:421 JLINK_ReadReg(R5)  returns 0x2000018C (0000ms, 0309ms total)
T322C 001:421 JLINK_ReadReg(R6)  returns 0x00000000 (0000ms, 0309ms total)
T322C 001:421 JLINK_ReadReg(R7)  returns 0x00000000 (0000ms, 0309ms total)
T322C 001:421 JLINK_ReadReg(R8)  returns 0x00000000 (0000ms, 0309ms total)
T322C 001:421 JLINK_ReadReg(R9)  returns 0x00000000 (0001ms, 0310ms total)
T322C 001:422 JLINK_ReadReg(R10)  returns 0x08029BDC (0000ms, 0310ms total)
T322C 001:422 JLINK_ReadReg(R11)  returns 0x00000000 (0000ms, 0310ms total)
T322C 001:422 JLINK_ReadReg(R12)  returns 0x200001CC (0000ms, 0310ms total)
T322C 001:422 JLINK_ReadReg(R13 (SP))  returns 0x200007F0 (0000ms, 0310ms total)
T322C 001:422 JLINK_ReadReg(R14)  returns 0x08020221 (0000ms, 0310ms total)
T322C 001:422 JLINK_ReadReg(R15 (PC))  returns 0x08024FEC (0000ms, 0310ms total)
T322C 001:422 JLINK_ReadReg(XPSR)  returns 0x21000000 (0000ms, 0310ms total)
T322C 001:422 JLINK_ReadReg(MSP)  returns 0x200007F0 (0000ms, 0310ms total)
T322C 001:422 JLINK_ReadReg(PSP)  returns 0x00000000 (0000ms, 0310ms total)
T322C 001:422 JLINK_ReadReg(CFBP)  returns 0x04000000 (0000ms, 0310ms total)
T322C 001:422 JLINK_ReadReg(FPSCR)  returns 0x03000000 (0005ms, 0315ms total)
T322C 001:427 JLINK_ReadReg(FPS0)  returns 0x00000000 (0000ms, 0315ms total)
T322C 001:427 JLINK_ReadReg(FPS1)  returns 0x00000000 (0000ms, 0315ms total)
T322C 001:427 JLINK_ReadReg(FPS2)  returns 0x00000000 (0000ms, 0315ms total)
T322C 001:427 JLINK_ReadReg(FPS3)  returns 0x00000000 (0000ms, 0315ms total)
T322C 001:427 JLINK_ReadReg(FPS4)  returns 0x00000000 (0000ms, 0315ms total)
T322C 001:427 JLINK_ReadReg(FPS5)  returns 0x00000000 (0000ms, 0315ms total)
T322C 001:427 JLINK_ReadReg(FPS6)  returns 0x00000000 (0000ms, 0315ms total)
T322C 001:427 JLINK_ReadReg(FPS7)  returns 0x00000000 (0000ms, 0315ms total)
T322C 001:427 JLINK_ReadReg(FPS8)  returns 0x00000000 (0000ms, 0315ms total)
T322C 001:427 JLINK_ReadReg(FPS9)  returns 0x00000000 (0002ms, 0317ms total)
T322C 001:429 JLINK_ReadReg(FPS10)  returns 0x00000000 (0000ms, 0317ms total)
T322C 001:429 JLINK_ReadReg(FPS11)  returns 0x00000000 (0000ms, 0317ms total)
T322C 001:429 JLINK_ReadReg(FPS12)  returns 0x00000000 (0000ms, 0317ms total)
T322C 001:429 JLINK_ReadReg(FPS13)  returns 0x00000000 (0000ms, 0317ms total)
T322C 001:429 JLINK_ReadReg(FPS14)  returns 0x00000000 (0000ms, 0317ms total)
T322C 001:429 JLINK_ReadReg(FPS15)  returns 0x00000000 (0000ms, 0317ms total)
T322C 001:429 JLINK_ReadReg(FPS16)  returns 0x00000000 (0000ms, 0317ms total)
T322C 001:429 JLINK_ReadReg(FPS17)  returns 0x00000000 (0000ms, 0317ms total)
T322C 001:429 JLINK_ReadReg(FPS18)  returns 0x00000000 (0000ms, 0317ms total)
T322C 001:429 JLINK_ReadReg(FPS19)  returns 0x00000000 (0000ms, 0317ms total)
T322C 001:429 JLINK_ReadReg(FPS20)  returns 0x00000000 (0000ms, 0317ms total)
T322C 001:429 JLINK_ReadReg(FPS21)  returns 0x00000000 (0001ms, 0318ms total)
T322C 001:430 JLINK_ReadReg(FPS22)  returns 0x00000000 (0000ms, 0318ms total)
T322C 001:430 JLINK_ReadReg(FPS23)  returns 0x00000000 (0000ms, 0318ms total)
T322C 001:430 JLINK_ReadReg(FPS24)  returns 0x00000000 (0000ms, 0318ms total)
T322C 001:430 JLINK_ReadReg(FPS25)  returns 0x00000000 (0000ms, 0318ms total)
T322C 001:430 JLINK_ReadReg(FPS26)  returns 0x00000000 (0000ms, 0318ms total)
T322C 001:430 JLINK_ReadReg(FPS27)  returns 0x00000000 (0000ms, 0318ms total)
T322C 001:430 JLINK_ReadReg(FPS28)  returns 0x00000000 (0000ms, 0318ms total)
T322C 001:430 JLINK_ReadReg(FPS29)  returns 0x00000000 (0000ms, 0318ms total)
T322C 001:430 JLINK_ReadReg(FPS30)  returns 0x00000000 (0000ms, 0318ms total)
T322C 001:430 JLINK_ReadReg(FPS31)  returns 0x00000000 (0000ms, 0318ms total)
T0564 001:432 JLINK_ReadMemEx(0x00000000, 0x0001 Bytes, ..., Flags = 0x02000000) -- CPU_ReadMem(4 bytes @ 0x00000004) -- CPU_ReadMem(64 bytes @ 0x08000000) -- Updating C cache (64 bytes @ 0x08000000) -- Read from C cache (1 bytes @ 0x08000000) - Data: 88  returns 0x01 (0002ms, 0320ms total)
T0564 001:434 JLINK_ReadMemEx(0x200007E0, 0x000C Bytes, ..., Flags = 0x02000000) -- CPU_ReadMem(64 bytes @ 0x200007C0) -- Updating C cache (64 bytes @ 0x200007C0) -- Read from C cache (12 bytes @ 0x200007E0) - Data: F0 03 00 20 F0 03 00 20 00 00 00 00  returns 0x0C (0001ms, 0321ms total)
T0564 001:440 JLINK_ReadMemU32(0xE0001004, 0x0001 Items, ...) -- CPU_ReadMem(4 bytes @ 0xE0001004) - Data: 64 3E 00 00  returns 0x01 (0000ms, 0321ms total)
T0564 001:448 JLINK_ReadMemEx(0x08024EEC, 0x003C Bytes, ..., Flags = 0x02000000) -- CPU_ReadMem(128 bytes @ 0x08024EC0) -- Updating C cache (128 bytes @ 0x08024EC0) -- Read from C cache (60 bytes @ 0x08024EEC) - Data: 01 6A 02 D0 49 1C 01 62 EC E7 89 1C FB E7 01 68 ...  returns 0x3C (0001ms, 0322ms total)
T0564 001:449 JLINK_ReadMemEx(0x08024F28, 0x003C Bytes, ..., Flags = 0x02000000) -- CPU_ReadMem(64 bytes @ 0x08024F40) -- Updating C cache (64 bytes @ 0x08024F40) -- Read from C cache (60 bytes @ 0x08024F28) - Data: 04 49 03 48 FC F7 F4 F9 00 28 F8 D1 10 BD 00 00 ...  returns 0x3C (0002ms, 0324ms total)
T0564 001:451 JLINK_ReadMemEx(0x08024F64, 0x003C Bytes, ..., Flags = 0x02000000) -- CPU_ReadMem(64 bytes @ 0x08024F80) -- Updating C cache (64 bytes @ 0x08024F80) -- Read from C cache (60 bytes @ 0x08024F64) - Data: 0A 28 01 D2 01 20 70 47 00 20 70 47 70 47 00 00 ...  returns 0x3C (0001ms, 0325ms total)
T0564 001:452 JLINK_ReadMemEx(0x08024FA0, 0x003C Bytes, ..., Flags = 0x02000000) -- CPU_ReadMem(64 bytes @ 0x08024FC0) -- Updating C cache (64 bytes @ 0x08024FC0) -- Read from C cache (60 bytes @ 0x08024FA0) - Data: 70 BD 00 00 70 B5 4F F0 E0 25 00 21 6C 69 09 4A ...  returns 0x3C (0000ms, 0325ms total)
T0564 001:452 JLINK_ReadMemEx(0x08024FDC, 0x0024 Bytes, ..., Flags = 0x02000000) -- Read from C cache (36 bytes @ 0x08024FDC) - Data: 52 06 FC D5 C2 B2 4A 60 70 47 00 00 00 10 01 40 ...  returns 0x24 (0001ms, 0326ms total)
T0564 001:453 JLINK_ReadMemEx(0x08025000, 0x0018 Bytes, ..., Flags = 0x02000000) -- CPU_ReadMem(64 bytes @ 0x08025000) -- Updating C cache (64 bytes @ 0x08025000) -- Read from C cache (24 bytes @ 0x08025000) - Data: 27 FD A8 20 FF F7 B6 FF 4F F4 E1 30 00 F0 AE F8 ...  returns 0x18 (0000ms, 0326ms total)
T0564 005:845 JLINK_SetResetType(JLINKARM_CM3_RESET_TYPE_NORMAL)  returns JLINKARM_CM3_RESET_TYPE_NORMAL (0000ms, 0326ms total)
T0564 005:845 JLINK_Reset() -- CPU_WriteMem(4 bytes @ 0xE000EDF0) -- CPU_WriteMem(4 bytes @ 0xE000EDFC) >0x35 TIF>Setting AIRCR.SYSRESETREQ -- CPU_WriteMem(4 bytes @ 0xE000ED0C) >0x0D TIF> >0x28 TIF> -- CPU_ReadMem(4 bytes @ 0xE000ED0C) -- CPU_ReadMem(4 bytes @ 0xE000EDF0) -- CPU_ReadMem(4 bytes @ 0xE000EDF0) -- CPU_ReadMem(4 bytes @ 0xE000EDF0) -- CPU_WriteMem(4 bytes @ 0xE000EDF0) -- CPU_WriteMem(4 bytes @ 0xE000EDFC) -- CPU_ReadMem(4 bytes @ 0xE000EDF0) -- CPU_WriteMem(4 bytes @ 0xE0002000)
 -- CPU_ReadMem(4 bytes @ 0xE000EDFC) -- CPU_ReadMem(4 bytes @ 0xE0001000) (0076ms, 0402ms total)
T0564 005:921 JLINK_ReadReg(R15 (PC))  returns 0x08000228 (0000ms, 0402ms total)
T0564 005:921 JLINK_ReadReg(XPSR)  returns 0x01000000 (0000ms, 0402ms total)
T0564 005:921 JLINK_ReadReg(R0)  returns 0x00000000 (0000ms, 0402ms total)
T0564 005:921 JLINK_ReadReg(R1)  returns 0x00000000 (0000ms, 0402ms total)
T0564 005:921 JLINK_ReadReg(R2)  returns 0x00000000 (0000ms, 0402ms total)
T0564 005:921 JLINK_ReadReg(R3)  returns 0x00000000 (0000ms, 0402ms total)
T0564 005:921 JLINK_ReadReg(R4)  returns 0x00000000 (0000ms, 0402ms total)
T0564 005:921 JLINK_ReadReg(R5)  returns 0x00000000 (0001ms, 0403ms total)
T0564 005:922 JLINK_ReadReg(R6)  returns 0x00000000 (0000ms, 0403ms total)
T0564 005:922 JLINK_ReadReg(R7)  returns 0x00000000 (0000ms, 0403ms total)
T0564 005:922 JLINK_ReadReg(R8)  returns 0x00000000 (0000ms, 0403ms total)
T0564 005:922 JLINK_ReadReg(R9)  returns 0x00000000 (0000ms, 0403ms total)
T0564 005:922 JLINK_ReadReg(R10)  returns 0x00000000 (0000ms, 0403ms total)
T0564 005:922 JLINK_ReadReg(R11)  returns 0x00000000 (0000ms, 0403ms total)
T0564 005:922 JLINK_ReadReg(R12)  returns 0x00000000 (0000ms, 0403ms total)
T0564 005:922 JLINK_ReadReg(R13 (SP))  returns 0x20000588 (0000ms, 0403ms total)
T0564 005:922 JLINK_ReadReg(R14)  returns 0xFFFFFFFF (0000ms, 0403ms total)
T0564 005:922 JLINK_ReadReg(R15 (PC))  returns 0x08000228 (0000ms, 0403ms total)
T0564 005:922 JLINK_ReadReg(XPSR)  returns 0x01000000 (0001ms, 0404ms total)
T0564 005:923 JLINK_ReadReg(MSP)  returns 0x20000588 (0000ms, 0404ms total)
T0564 005:923 JLINK_ReadReg(PSP)  returns 0x00000000 (0000ms, 0404ms total)
T0564 005:923 JLINK_ReadReg(CFBP)  returns 0x00000000 (0000ms, 0404ms total)
T0564 005:923 JLINK_ReadReg(FPSCR)  returns 0x00000000 (0004ms, 0408ms total)
T0564 005:927 JLINK_ReadReg(FPS0)  returns 0x00000000 (0000ms, 0408ms total)
T0564 005:927 JLINK_ReadReg(FPS1)  returns 0x00000000 (0000ms, 0408ms total)
T0564 005:927 JLINK_ReadReg(FPS2)  returns 0x00000000 (0000ms, 0408ms total)
T0564 005:927 JLINK_ReadReg(FPS3)  returns 0x00000000 (0000ms, 0408ms total)
T0564 005:927 JLINK_ReadReg(FPS4)  returns 0x00000000 (0000ms, 0408ms total)
T0564 005:927 JLINK_ReadReg(FPS5)  returns 0x00000000 (0001ms, 0409ms total)
T0564 005:928 JLINK_ReadReg(FPS6)  returns 0x00000000 (0000ms, 0409ms total)
T0564 005:928 JLINK_ReadReg(FPS7)  returns 0x00000000 (0000ms, 0409ms total)
T0564 005:928 JLINK_ReadReg(FPS8)  returns 0x00000000 (0000ms, 0409ms total)
T0564 005:928 JLINK_ReadReg(FPS9)  returns 0x00000000 (0000ms, 0409ms total)
T0564 005:928 JLINK_ReadReg(FPS10)  returns 0x00000000 (0000ms, 0409ms total)
T0564 005:928 JLINK_ReadReg(FPS11)  returns 0x00000000 (0000ms, 0409ms total)
T0564 005:928 JLINK_ReadReg(FPS12)  returns 0x00000000 (0000ms, 0409ms total)
T0564 005:928 JLINK_ReadReg(FPS13)  returns 0x00000000 (0000ms, 0409ms total)
T0564 005:928 JLINK_ReadReg(FPS14)  returns 0x00000000 (0000ms, 0409ms total)
T0564 005:928 JLINK_ReadReg(FPS15)  returns 0x00000000 (0000ms, 0409ms total)
T0564 005:928 JLINK_ReadReg(FPS16)  returns 0x00000000 (0000ms, 0409ms total)
T0564 005:928 JLINK_ReadReg(FPS17)  returns 0x00000000 (0001ms, 0410ms total)
T0564 005:929 JLINK_ReadReg(FPS18)  returns 0x00000000 (0000ms, 0410ms total)
T0564 005:929 JLINK_ReadReg(FPS19)  returns 0x00000000 (0000ms, 0410ms total)
T0564 005:929 JLINK_ReadReg(FPS20)  returns 0x00000000 (0000ms, 0410ms total)
T0564 005:929 JLINK_ReadReg(FPS21)  returns 0x00000000 (0000ms, 0410ms total)
T0564 005:929 JLINK_ReadReg(FPS22)  returns 0x00000000 (0000ms, 0410ms total)
T0564 005:929 JLINK_ReadReg(FPS23)  returns 0x00000000 (0000ms, 0410ms total)
T0564 005:929 JLINK_ReadReg(FPS24)  returns 0x00000000 (0000ms, 0410ms total)
T0564 005:929 JLINK_ReadReg(FPS25)  returns 0x00000000 (0000ms, 0410ms total)
T0564 005:929 JLINK_ReadReg(FPS26)  returns 0x00000000 (0000ms, 0410ms total)
T0564 005:929 JLINK_ReadReg(FPS27)  returns 0x00000000 (0000ms, 0410ms total)
T0564 005:929 JLINK_ReadReg(FPS28)  returns 0x00000000 (0000ms, 0410ms total)
T0564 005:929 JLINK_ReadReg(FPS29)  returns 0x00000000 (0000ms, 0410ms total)
T0564 005:929 JLINK_ReadReg(FPS30)  returns 0x00000000 (0001ms, 0411ms total)
T0564 005:930 JLINK_ReadReg(FPS31)  returns 0x00000000 (0000ms, 0411ms total)
T0564 005:930 JLINK_ReadMemU32(0xE0001004, 0x0001 Items, ...) - Data: 00 00 00 00  returns 0x01 (0000ms, 0411ms total)
T0564 005:943 JLINK_ReadMemEx(0x08000228, 0x003C Bytes, ..., Flags = 0x02000000) -- CPU_ReadMem(128 bytes @ 0x08000200) -- Updating C cache (128 bytes @ 0x08000200) -- Read from C cache (60 bytes @ 0x08000228) - Data: 0C 48 01 68 41 F4 70 01 01 60 0B 48 80 47 0B 48 ...  returns 0x3C (0002ms, 0413ms total)
T0564 006:973 JLINK_SetResetType(JLINKARM_CM3_RESET_TYPE_NORMAL)  returns JLINKARM_CM3_RESET_TYPE_NORMAL (0000ms, 0413ms total)
T0564 006:973 JLINK_Reset() -- CPU_WriteMem(4 bytes @ 0xE000EDF0) -- CPU_WriteMem(4 bytes @ 0xE000EDFC) >0x35 TIF>Setting AIRCR.SYSRESETREQ -- CPU_WriteMem(4 bytes @ 0xE000ED0C) >0x0D TIF> >0x28 TIF> -- CPU_ReadMem(4 bytes @ 0xE000ED0C) -- CPU_ReadMem(4 bytes @ 0xE000EDF0) -- CPU_ReadMem(4 bytes @ 0xE000EDF0) -- CPU_ReadMem(4 bytes @ 0xE000EDF0) -- CPU_WriteMem(4 bytes @ 0xE000EDF0) -- CPU_WriteMem(4 bytes @ 0xE000EDFC) -- CPU_ReadMem(4 bytes @ 0xE000EDF0) -- CPU_WriteMem(4 bytes @ 0xE0002000)
 -- CPU_ReadMem(4 bytes @ 0xE000EDFC) -- CPU_ReadMem(4 bytes @ 0xE0001000) (0073ms, 0486ms total)
T0564 007:046 JLINK_ReadReg(R15 (PC))  returns 0x08000228 (0000ms, 0486ms total)
T0564 007:046 JLINK_ReadReg(XPSR)  returns 0x01000000 (0000ms, 0486ms total)
T0564 007:046 JLINK_ReadReg(R0)  returns 0x00000000 (0000ms, 0486ms total)
T0564 007:046 JLINK_ReadReg(R1)  returns 0x00000000 (0000ms, 0486ms total)
T0564 007:046 JLINK_ReadReg(R2)  returns 0x00000000 (0000ms, 0486ms total)
T0564 007:046 JLINK_ReadReg(R3)  returns 0x00000000 (0001ms, 0487ms total)
T0564 007:047 JLINK_ReadReg(R4)  returns 0x00000000 (0000ms, 0487ms total)
T0564 007:047 JLINK_ReadReg(R5)  returns 0x00000000 (0000ms, 0487ms total)
T0564 007:047 JLINK_ReadReg(R6)  returns 0x00000000 (0000ms, 0487ms total)
T0564 007:047 JLINK_ReadReg(R7)  returns 0x00000000 (0000ms, 0487ms total)
T0564 007:047 JLINK_ReadReg(R8)  returns 0x00000000 (0000ms, 0487ms total)
T0564 007:047 JLINK_ReadReg(R9)  returns 0x00000000 (0000ms, 0487ms total)
T0564 007:047 JLINK_ReadReg(R10)  returns 0x00000000 (0000ms, 0487ms total)
T0564 007:047 JLINK_ReadReg(R11)  returns 0x00000000 (0000ms, 0487ms total)
T0564 007:047 JLINK_ReadReg(R12)  returns 0x00000000 (0001ms, 0488ms total)
T0564 007:048 JLINK_ReadReg(R13 (SP))  returns 0x20000588 (0000ms, 0488ms total)
T0564 007:048 JLINK_ReadReg(R14)  returns 0xFFFFFFFF (0000ms, 0488ms total)
T0564 007:048 JLINK_ReadReg(R15 (PC))  returns 0x08000228 (0000ms, 0488ms total)
T0564 007:048 JLINK_ReadReg(XPSR)  returns 0x01000000 (0000ms, 0488ms total)
T0564 007:048 JLINK_ReadReg(MSP)  returns 0x20000588 (0000ms, 0488ms total)
T0564 007:048 JLINK_ReadReg(PSP)  returns 0x00000000 (0000ms, 0488ms total)
T0564 007:048 JLINK_ReadReg(CFBP)  returns 0x00000000 (0000ms, 0488ms total)
T0564 007:048 JLINK_ReadReg(FPSCR)  returns 0x00000000 (0008ms, 0496ms total)
T0564 007:056 JLINK_ReadReg(FPS0)  returns 0x00000000 (0000ms, 0496ms total)
T0564 007:056 JLINK_ReadReg(FPS1)  returns 0x00000000 (0000ms, 0496ms total)
T0564 007:056 JLINK_ReadReg(FPS2)  returns 0x00000000 (0000ms, 0496ms total)
T0564 007:056 JLINK_ReadReg(FPS3)  returns 0x00000000 (0000ms, 0496ms total)
T0564 007:056 JLINK_ReadReg(FPS4)  returns 0x00000000 (0000ms, 0496ms total)
T0564 007:056 JLINK_ReadReg(FPS5)  returns 0x00000000 (0000ms, 0496ms total)
T0564 007:056 JLINK_ReadReg(FPS6)  returns 0x00000000 (0000ms, 0496ms total)
T0564 007:056 JLINK_ReadReg(FPS7)  returns 0x00000000 (0000ms, 0496ms total)
T0564 007:056 JLINK_ReadReg(FPS8)  returns 0x00000000 (0001ms, 0497ms total)
T0564 007:057 JLINK_ReadReg(FPS9)  returns 0x00000000 (0000ms, 0497ms total)
T0564 007:057 JLINK_ReadReg(FPS10)  returns 0x00000000 (0000ms, 0497ms total)
T0564 007:057 JLINK_ReadReg(FPS11)  returns 0x00000000 (0000ms, 0497ms total)
T0564 007:057 JLINK_ReadReg(FPS12)  returns 0x00000000 (0000ms, 0497ms total)
T0564 007:057 JLINK_ReadReg(FPS13)  returns 0x00000000 (0000ms, 0497ms total)
T0564 007:057 JLINK_ReadReg(FPS14)  returns 0x00000000 (0000ms, 0497ms total)
T0564 007:057 JLINK_ReadReg(FPS15)  returns 0x00000000 (0000ms, 0497ms total)
T0564 007:057 JLINK_ReadReg(FPS16)  returns 0x00000000 (0000ms, 0497ms total)
T0564 007:057 JLINK_ReadReg(FPS17)  returns 0x00000000 (0000ms, 0497ms total)
T0564 007:057 JLINK_ReadReg(FPS18)  returns 0x00000000 (0000ms, 0497ms total)
T0564 007:057 JLINK_ReadReg(FPS19)  returns 0x00000000 (0001ms, 0498ms total)
T0564 007:058 JLINK_ReadReg(FPS20)  returns 0x00000000 (0000ms, 0498ms total)
T0564 007:058 JLINK_ReadReg(FPS21)  returns 0x00000000 (0000ms, 0498ms total)
T0564 007:058 JLINK_ReadReg(FPS22)  returns 0x00000000 (0000ms, 0498ms total)
T0564 007:058 JLINK_ReadReg(FPS23)  returns 0x00000000 (0000ms, 0498ms total)
T0564 007:058 JLINK_ReadReg(FPS24)  returns 0x00000000 (0000ms, 0498ms total)
T0564 007:058 JLINK_ReadReg(FPS25)  returns 0x00000000 (0000ms, 0498ms total)
T0564 007:058 JLINK_ReadReg(FPS26)  returns 0x00000000 (0000ms, 0498ms total)
T0564 007:058 JLINK_ReadReg(FPS27)  returns 0x00000000 (0000ms, 0498ms total)
T0564 007:058 JLINK_ReadReg(FPS28)  returns 0x00000000 (0000ms, 0498ms total)
T0564 007:058 JLINK_ReadReg(FPS29)  returns 0x00000000 (0000ms, 0498ms total)
T0564 007:058 JLINK_ReadReg(FPS30)  returns 0x00000000 (0000ms, 0498ms total)
T0564 007:058 JLINK_ReadReg(FPS31)  returns 0x00000000 (0001ms, 0499ms total)
T0564 007:059 JLINK_ReadMemU32(0xE0001004, 0x0001 Items, ...) - Data: 00 00 00 00  returns 0x01 (0000ms, 0499ms total)
T0564 007:724 JLINK_SetResetType(JLINKARM_CM3_RESET_TYPE_NORMAL)  returns JLINKARM_CM3_RESET_TYPE_NORMAL (0000ms, 0499ms total)
T0564 007:724 JLINK_Reset() -- CPU_WriteMem(4 bytes @ 0xE000EDF0) -- CPU_WriteMem(4 bytes @ 0xE000EDFC) >0x35 TIF>Setting AIRCR.SYSRESETREQ -- CPU_WriteMem(4 bytes @ 0xE000ED0C) >0x0D TIF> >0x28 TIF> -- CPU_ReadMem(4 bytes @ 0xE000ED0C) -- CPU_ReadMem(4 bytes @ 0xE000EDF0) -- CPU_ReadMem(4 bytes @ 0xE000EDF0) -- CPU_ReadMem(4 bytes @ 0xE000EDF0) -- CPU_WriteMem(4 bytes @ 0xE000EDF0) -- CPU_WriteMem(4 bytes @ 0xE000EDFC) -- CPU_ReadMem(4 bytes @ 0xE000EDF0) -- CPU_WriteMem(4 bytes @ 0xE0002000)
 -- CPU_ReadMem(4 bytes @ 0xE000EDFC) -- CPU_ReadMem(4 bytes @ 0xE0001000) (0070ms, 0569ms total)
T0564 007:794 JLINK_ReadReg(R15 (PC))  returns 0x08000228 (0000ms, 0569ms total)
T0564 007:794 JLINK_ReadReg(XPSR)  returns 0x01000000 (0000ms, 0569ms total)
T0564 007:794 JLINK_ReadReg(R0)  returns 0x00000000 (0000ms, 0569ms total)
T0564 007:794 JLINK_ReadReg(R1)  returns 0x00000000 (0000ms, 0569ms total)
T0564 007:794 JLINK_ReadReg(R2)  returns 0x00000000 (0001ms, 0570ms total)
T0564 007:795 JLINK_ReadReg(R3)  returns 0x00000000 (0000ms, 0570ms total)
T0564 007:795 JLINK_ReadReg(R4)  returns 0x00000000 (0000ms, 0570ms total)
T0564 007:795 JLINK_ReadReg(R5)  returns 0x00000000 (0000ms, 0570ms total)
T0564 007:795 JLINK_ReadReg(R6)  returns 0x00000000 (0000ms, 0570ms total)
T0564 007:795 JLINK_ReadReg(R7)  returns 0x00000000 (0000ms, 0570ms total)
T0564 007:795 JLINK_ReadReg(R8)  returns 0x00000000 (0000ms, 0570ms total)
T0564 007:795 JLINK_ReadReg(R9)  returns 0x00000000 (0000ms, 0570ms total)
T0564 007:795 JLINK_ReadReg(R10)  returns 0x00000000 (0001ms, 0571ms total)
T0564 007:796 JLINK_ReadReg(R11)  returns 0x00000000 (0000ms, 0571ms total)
T0564 007:796 JLINK_ReadReg(R12)  returns 0x00000000 (0000ms, 0571ms total)
T0564 007:796 JLINK_ReadReg(R13 (SP))  returns 0x20000588 (0000ms, 0571ms total)
T0564 007:796 JLINK_ReadReg(R14)  returns 0xFFFFFFFF (0000ms, 0571ms total)
T0564 007:796 JLINK_ReadReg(R15 (PC))  returns 0x08000228 (0000ms, 0571ms total)
T0564 007:796 JLINK_ReadReg(XPSR)  returns 0x01000000 (0000ms, 0571ms total)
T0564 007:796 JLINK_ReadReg(MSP)  returns 0x20000588 (0000ms, 0571ms total)
T0564 007:796 JLINK_ReadReg(PSP)  returns 0x00000000 (0000ms, 0571ms total)
T0564 007:796 JLINK_ReadReg(CFBP)  returns 0x00000000 (0001ms, 0572ms total)
T0564 007:797 JLINK_ReadReg(FPSCR)  returns 0x00000000 (0003ms, 0575ms total)
T0564 007:800 JLINK_ReadReg(FPS0)  returns 0x00000000 (0000ms, 0575ms total)
T0564 007:800 JLINK_ReadReg(FPS1)  returns 0x00000000 (0000ms, 0575ms total)
T0564 007:800 JLINK_ReadReg(FPS2)  returns 0x00000000 (0001ms, 0576ms total)
T0564 007:801 JLINK_ReadReg(FPS3)  returns 0x00000000 (0000ms, 0576ms total)
T0564 007:801 JLINK_ReadReg(FPS4)  returns 0x00000000 (0000ms, 0576ms total)
T0564 007:801 JLINK_ReadReg(FPS5)  returns 0x00000000 (0000ms, 0576ms total)
T0564 007:801 JLINK_ReadReg(FPS6)  returns 0x00000000 (0000ms, 0576ms total)
T0564 007:801 JLINK_ReadReg(FPS7)  returns 0x00000000 (0000ms, 0576ms total)
T0564 007:801 JLINK_ReadReg(FPS8)  returns 0x00000000 (0000ms, 0576ms total)
T0564 007:801 JLINK_ReadReg(FPS9)  returns 0x00000000 (0000ms, 0576ms total)
T0564 007:801 JLINK_ReadReg(FPS10)  returns 0x00000000 (0000ms, 0576ms total)
T0564 007:801 JLINK_ReadReg(FPS11)  returns 0x00000000 (0001ms, 0577ms total)
T0564 007:802 JLINK_ReadReg(FPS12)  returns 0x00000000 (0000ms, 0577ms total)
T0564 007:802 JLINK_ReadReg(FPS13)  returns 0x00000000 (0000ms, 0577ms total)
T0564 007:802 JLINK_ReadReg(FPS14)  returns 0x00000000 (0000ms, 0577ms total)
T0564 007:802 JLINK_ReadReg(FPS15)  returns 0x00000000 (0000ms, 0577ms total)
T0564 007:802 JLINK_ReadReg(FPS16)  returns 0x00000000 (0000ms, 0577ms total)
T0564 007:802 JLINK_ReadReg(FPS17)  returns 0x00000000 (0000ms, 0577ms total)
T0564 007:802 JLINK_ReadReg(FPS18)  returns 0x00000000 (0000ms, 0577ms total)
T0564 007:802 JLINK_ReadReg(FPS19)  returns 0x00000000 (0000ms, 0577ms total)
T0564 007:802 JLINK_ReadReg(FPS20)  returns 0x00000000 (0000ms, 0577ms total)
T0564 007:802 JLINK_ReadReg(FPS21)  returns 0x00000000 (0000ms, 0577ms total)
T0564 007:802 JLINK_ReadReg(FPS22)  returns 0x00000000 (0001ms, 0578ms total)
T0564 007:803 JLINK_ReadReg(FPS23)  returns 0x00000000 (0000ms, 0578ms total)
T0564 007:803 JLINK_ReadReg(FPS24)  returns 0x00000000 (0000ms, 0578ms total)
T0564 007:803 JLINK_ReadReg(FPS25)  returns 0x00000000 (0000ms, 0578ms total)
T0564 007:803 JLINK_ReadReg(FPS26)  returns 0x00000000 (0000ms, 0578ms total)
T0564 007:803 JLINK_ReadReg(FPS27)  returns 0x00000000 (0000ms, 0578ms total)
T0564 007:803 JLINK_ReadReg(FPS28)  returns 0x00000000 (0000ms, 0578ms total)
T0564 007:803 JLINK_ReadReg(FPS29)  returns 0x00000000 (0000ms, 0578ms total)
T0564 007:803 JLINK_ReadReg(FPS30)  returns 0x00000000 (0000ms, 0578ms total)
T0564 007:803 JLINK_ReadReg(FPS31)  returns 0x00000000 (0000ms, 0578ms total)
T0564 007:803 JLINK_ReadMemU32(0xE0001004, 0x0001 Items, ...) - Data: 00 00 00 00  returns 0x01 (0000ms, 0578ms total)
T0564 008:444 JLINK_SetResetType(JLINKARM_CM3_RESET_TYPE_NORMAL)  returns JLINKARM_CM3_RESET_TYPE_NORMAL (0000ms, 0578ms total)
T0564 008:444 JLINK_Reset() -- CPU_WriteMem(4 bytes @ 0xE000EDF0) -- CPU_WriteMem(4 bytes @ 0xE000EDFC) >0x35 TIF>Setting AIRCR.SYSRESETREQ -- CPU_WriteMem(4 bytes @ 0xE000ED0C) >0x0D TIF> >0x28 TIF> -- CPU_ReadMem(4 bytes @ 0xE000ED0C) -- CPU_ReadMem(4 bytes @ 0xE000EDF0) -- CPU_ReadMem(4 bytes @ 0xE000EDF0) -- CPU_ReadMem(4 bytes @ 0xE000EDF0) -- CPU_WriteMem(4 bytes @ 0xE000EDF0) -- CPU_WriteMem(4 bytes @ 0xE000EDFC) -- CPU_ReadMem(4 bytes @ 0xE000EDF0) -- CPU_WriteMem(4 bytes @ 0xE0002000)
 -- CPU_ReadMem(4 bytes @ 0xE000EDFC) -- CPU_ReadMem(4 bytes @ 0xE0001000) (0073ms, 0651ms total)
T0564 008:517 JLINK_ReadReg(R15 (PC))  returns 0x08000228 (0000ms, 0651ms total)
T0564 008:517 JLINK_ReadReg(XPSR)  returns 0x01000000 (0000ms, 0651ms total)
T0564 008:517 JLINK_ReadReg(R0)  returns 0x00000000 (0000ms, 0651ms total)
T0564 008:517 JLINK_ReadReg(R1)  returns 0x00000000 (0000ms, 0651ms total)
T0564 008:517 JLINK_ReadReg(R2)  returns 0x00000000 (0000ms, 0651ms total)
T0564 008:517 JLINK_ReadReg(R3)  returns 0x00000000 (0000ms, 0651ms total)
T0564 008:518 JLINK_ReadReg(R4)  returns 0x00000000 (0000ms, 0652ms total)
T0564 008:518 JLINK_ReadReg(R5)  returns 0x00000000 (0000ms, 0652ms total)
T0564 008:518 JLINK_ReadReg(R6)  returns 0x00000000 (0000ms, 0652ms total)
T0564 008:518 JLINK_ReadReg(R7)  returns 0x00000000 (0000ms, 0652ms total)
T0564 008:518 JLINK_ReadReg(R8)  returns 0x00000000 (0000ms, 0652ms total)
T0564 008:518 JLINK_ReadReg(R9)  returns 0x00000000 (0000ms, 0652ms total)
T0564 008:518 JLINK_ReadReg(R10)  returns 0x00000000 (0000ms, 0652ms total)
T0564 008:518 JLINK_ReadReg(R11)  returns 0x00000000 (0000ms, 0652ms total)
T0564 008:518 JLINK_ReadReg(R12)  returns 0x00000000 (0000ms, 0652ms total)
T0564 008:518 JLINK_ReadReg(R13 (SP))  returns 0x20000588 (0001ms, 0653ms total)
T0564 008:519 JLINK_ReadReg(R14)  returns 0xFFFFFFFF (0000ms, 0653ms total)
T0564 008:519 JLINK_ReadReg(R15 (PC))  returns 0x08000228 (0000ms, 0653ms total)
T0564 008:519 JLINK_ReadReg(XPSR)  returns 0x01000000 (0000ms, 0653ms total)
T0564 008:519 JLINK_ReadReg(MSP)  returns 0x20000588 (0000ms, 0653ms total)
T0564 008:519 JLINK_ReadReg(PSP)  returns 0x00000000 (0000ms, 0653ms total)
T0564 008:519 JLINK_ReadReg(CFBP)  returns 0x00000000 (0000ms, 0653ms total)
T0564 008:519 JLINK_ReadReg(FPSCR)  returns 0x00000000 (0004ms, 0657ms total)
T0564 008:523 JLINK_ReadReg(FPS0)  returns 0x00000000 (0000ms, 0657ms total)
T0564 008:523 JLINK_ReadReg(FPS1)  returns 0x00000000 (0000ms, 0657ms total)
T0564 008:523 JLINK_ReadReg(FPS2)  returns 0x00000000 (0000ms, 0657ms total)
T0564 008:523 JLINK_ReadReg(FPS3)  returns 0x00000000 (0000ms, 0657ms total)
T0564 008:523 JLINK_ReadReg(FPS4)  returns 0x00000000 (0000ms, 0657ms total)
T0564 008:524 JLINK_ReadReg(FPS5)  returns 0x00000000 (0000ms, 0658ms total)
T0564 008:524 JLINK_ReadReg(FPS6)  returns 0x00000000 (0000ms, 0658ms total)
T0564 008:524 JLINK_ReadReg(FPS7)  returns 0x00000000 (0000ms, 0658ms total)
T0564 008:524 JLINK_ReadReg(FPS8)  returns 0x00000000 (0000ms, 0658ms total)
T0564 008:524 JLINK_ReadReg(FPS9)  returns 0x00000000 (0000ms, 0658ms total)
T0564 008:524 JLINK_ReadReg(FPS10)  returns 0x00000000 (0000ms, 0658ms total)
T0564 008:524 JLINK_ReadReg(FPS11)  returns 0x00000000 (0000ms, 0658ms total)
T0564 008:524 JLINK_ReadReg(FPS12)  returns 0x00000000 (0000ms, 0658ms total)
T0564 008:524 JLINK_ReadReg(FPS13)  returns 0x00000000 (0000ms, 0658ms total)
T0564 008:524 JLINK_ReadReg(FPS14)  returns 0x00000000 (0000ms, 0658ms total)
T0564 008:524 JLINK_ReadReg(FPS15)  returns 0x00000000 (0001ms, 0659ms total)
T0564 008:525 JLINK_ReadReg(FPS16)  returns 0x00000000 (0000ms, 0659ms total)
T0564 008:525 JLINK_ReadReg(FPS17)  returns 0x00000000 (0000ms, 0659ms total)
T0564 008:525 JLINK_ReadReg(FPS18)  returns 0x00000000 (0000ms, 0659ms total)
T0564 008:525 JLINK_ReadReg(FPS19)  returns 0x00000000 (0000ms, 0659ms total)
T0564 008:525 JLINK_ReadReg(FPS20)  returns 0x00000000 (0000ms, 0659ms total)
T0564 008:525 JLINK_ReadReg(FPS21)  returns 0x00000000 (0000ms, 0659ms total)
T0564 008:525 JLINK_ReadReg(FPS22)  returns 0x00000000 (0000ms, 0659ms total)
T0564 008:525 JLINK_ReadReg(FPS23)  returns 0x00000000 (0000ms, 0659ms total)
T0564 008:525 JLINK_ReadReg(FPS24)  returns 0x00000000 (0000ms, 0659ms total)
T0564 008:525 JLINK_ReadReg(FPS25)  returns 0x00000000 (0000ms, 0659ms total)
T0564 008:525 JLINK_ReadReg(FPS26)  returns 0x00000000 (0000ms, 0659ms total)
T0564 008:525 JLINK_ReadReg(FPS27)  returns 0x00000000 (0001ms, 0660ms total)
T0564 008:526 JLINK_ReadReg(FPS28)  returns 0x00000000 (0000ms, 0660ms total)
T0564 008:526 JLINK_ReadReg(FPS29)  returns 0x00000000 (0000ms, 0660ms total)
T0564 008:526 JLINK_ReadReg(FPS30)  returns 0x00000000 (0000ms, 0660ms total)
T0564 008:526 JLINK_ReadReg(FPS31)  returns 0x00000000 (0000ms, 0660ms total)
T0564 008:526 JLINK_ReadMemU32(0xE0001004, 0x0001 Items, ...) - Data: 00 00 00 00  returns 0x01 (0000ms, 0660ms total)
T0564 010:244 JLINK_SetResetType(JLINKARM_CM3_RESET_TYPE_NORMAL)  returns JLINKARM_CM3_RESET_TYPE_NORMAL (0000ms, 0660ms total)
T0564 010:244 JLINK_Reset() -- CPU_WriteMem(4 bytes @ 0xE000EDF0) -- CPU_WriteMem(4 bytes @ 0xE000EDFC) >0x35 TIF>Setting AIRCR.SYSRESETREQ -- CPU_WriteMem(4 bytes @ 0xE000ED0C) >0x0D TIF> >0x28 TIF> -- CPU_ReadMem(4 bytes @ 0xE000ED0C) -- CPU_ReadMem(4 bytes @ 0xE000EDF0) -- CPU_ReadMem(4 bytes @ 0xE000EDF0) -- CPU_ReadMem(4 bytes @ 0xE000EDF0) -- CPU_WriteMem(4 bytes @ 0xE000EDF0) -- CPU_WriteMem(4 bytes @ 0xE000EDFC) -- CPU_ReadMem(4 bytes @ 0xE000EDF0) -- CPU_WriteMem(4 bytes @ 0xE0002000)
 -- CPU_ReadMem(4 bytes @ 0xE000EDFC) -- CPU_ReadMem(4 bytes @ 0xE0001000) (0072ms, 0732ms total)
T0564 010:316 JLINK_ReadReg(R15 (PC))  returns 0x08000228 (0000ms, 0732ms total)
T0564 010:316 JLINK_ReadReg(XPSR)  returns 0x01000000 (0000ms, 0732ms total)
T0564 010:316 JLINK_ReadReg(R0)  returns 0x00000000 (0000ms, 0732ms total)
T0564 010:316 JLINK_ReadReg(R1)  returns 0x00000000 (0000ms, 0732ms total)
T0564 010:317 JLINK_ReadReg(R2)  returns 0x00000000 (0000ms, 0733ms total)
T0564 010:317 JLINK_ReadReg(R3)  returns 0x00000000 (0000ms, 0733ms total)
T0564 010:317 JLINK_ReadReg(R4)  returns 0x00000000 (0000ms, 0733ms total)
T0564 010:317 JLINK_ReadReg(R5)  returns 0x00000000 (0000ms, 0733ms total)
T0564 010:317 JLINK_ReadReg(R6)  returns 0x00000000 (0000ms, 0733ms total)
T0564 010:317 JLINK_ReadReg(R7)  returns 0x00000000 (0000ms, 0733ms total)
T0564 010:317 JLINK_ReadReg(R8)  returns 0x00000000 (0000ms, 0733ms total)
T0564 010:317 JLINK_ReadReg(R9)  returns 0x00000000 (0000ms, 0733ms total)
T0564 010:317 JLINK_ReadReg(R10)  returns 0x00000000 (0000ms, 0733ms total)
T0564 010:317 JLINK_ReadReg(R11)  returns 0x00000000 (0001ms, 0734ms total)
T0564 010:318 JLINK_ReadReg(R12)  returns 0x00000000 (0000ms, 0734ms total)
T0564 010:318 JLINK_ReadReg(R13 (SP))  returns 0x20000588 (0000ms, 0734ms total)
T0564 010:318 JLINK_ReadReg(R14)  returns 0xFFFFFFFF (0000ms, 0734ms total)
T0564 010:318 JLINK_ReadReg(R15 (PC))  returns 0x08000228 (0000ms, 0734ms total)
T0564 010:318 JLINK_ReadReg(XPSR)  returns 0x01000000 (0000ms, 0734ms total)
T0564 010:318 JLINK_ReadReg(MSP)  returns 0x20000588 (0000ms, 0734ms total)
T0564 010:318 JLINK_ReadReg(PSP)  returns 0x00000000 (0000ms, 0734ms total)
T0564 010:318 JLINK_ReadReg(CFBP)  returns 0x00000000 (0000ms, 0734ms total)
T0564 010:318 JLINK_ReadReg(FPSCR)  returns 0x00000000 (0005ms, 0739ms total)
T0564 010:323 JLINK_ReadReg(FPS0)  returns 0x00000000 (0000ms, 0739ms total)
T0564 010:323 JLINK_ReadReg(FPS1)  returns 0x00000000 (0000ms, 0739ms total)
T0564 010:323 JLINK_ReadReg(FPS2)  returns 0x00000000 (0000ms, 0739ms total)
T0564 010:323 JLINK_ReadReg(FPS3)  returns 0x00000000 (0000ms, 0739ms total)
T0564 010:323 JLINK_ReadReg(FPS4)  returns 0x00000000 (0000ms, 0739ms total)
T0564 010:323 JLINK_ReadReg(FPS5)  returns 0x00000000 (0000ms, 0739ms total)
T0564 010:324 JLINK_ReadReg(FPS6)  returns 0x00000000 (0000ms, 0740ms total)
T0564 010:324 JLINK_ReadReg(FPS7)  returns 0x00000000 (0000ms, 0740ms total)
T0564 010:324 JLINK_ReadReg(FPS8)  returns 0x00000000 (0000ms, 0740ms total)
T0564 010:324 JLINK_ReadReg(FPS9)  returns 0x00000000 (0000ms, 0740ms total)
T0564 010:324 JLINK_ReadReg(FPS10)  returns 0x00000000 (0000ms, 0740ms total)
T0564 010:324 JLINK_ReadReg(FPS11)  returns 0x00000000 (0000ms, 0740ms total)
T0564 010:324 JLINK_ReadReg(FPS12)  returns 0x00000000 (0000ms, 0740ms total)
T0564 010:324 JLINK_ReadReg(FPS13)  returns 0x00000000 (0000ms, 0740ms total)
T0564 010:324 JLINK_ReadReg(FPS14)  returns 0x00000000 (0000ms, 0740ms total)
T0564 010:324 JLINK_ReadReg(FPS15)  returns 0x00000000 (0001ms, 0741ms total)
T0564 010:325 JLINK_ReadReg(FPS16)  returns 0x00000000 (0000ms, 0741ms total)
T0564 010:325 JLINK_ReadReg(FPS17)  returns 0x00000000 (0000ms, 0741ms total)
T0564 010:325 JLINK_ReadReg(FPS18)  returns 0x00000000 (0000ms, 0741ms total)
T0564 010:325 JLINK_ReadReg(FPS19)  returns 0x00000000 (0000ms, 0741ms total)
T0564 010:325 JLINK_ReadReg(FPS20)  returns 0x00000000 (0000ms, 0741ms total)
T0564 010:325 JLINK_ReadReg(FPS21)  returns 0x00000000 (0000ms, 0741ms total)
T0564 010:325 JLINK_ReadReg(FPS22)  returns 0x00000000 (0000ms, 0741ms total)
T0564 010:325 JLINK_ReadReg(FPS23)  returns 0x00000000 (0000ms, 0741ms total)
T0564 010:325 JLINK_ReadReg(FPS24)  returns 0x00000000 (0000ms, 0741ms total)
T0564 010:325 JLINK_ReadReg(FPS25)  returns 0x00000000 (0000ms, 0741ms total)
T0564 010:325 JLINK_ReadReg(FPS26)  returns 0x00000000 (0001ms, 0742ms total)
T0564 010:326 JLINK_ReadReg(FPS27)  returns 0x00000000 (0000ms, 0742ms total)
T0564 010:326 JLINK_ReadReg(FPS28)  returns 0x00000000 (0000ms, 0742ms total)
T0564 010:326 JLINK_ReadReg(FPS29)  returns 0x00000000 (0000ms, 0742ms total)
T0564 010:326 JLINK_ReadReg(FPS30)  returns 0x00000000 (0000ms, 0742ms total)
T0564 010:326 JLINK_ReadReg(FPS31)  returns 0x00000000 (0000ms, 0742ms total)
T0564 010:326 JLINK_ReadMemU32(0xE0001004, 0x0001 Items, ...) - Data: 00 00 00 00  returns 0x01 (0000ms, 0742ms total)
T322C 011:630 JLINK_ReadMemEx(0x08000228, 0x0002 Bytes, ..., Flags = 0x02000000) -- CPU_ReadMem(64 bytes @ 0x08000200) -- Updating C cache (64 bytes @ 0x08000200) -- Read from C cache (2 bytes @ 0x08000228) - Data: 0C 48  returns 0x02 (0001ms, 0743ms total)
T322C 011:631 JLINK_Go() -- CPU_ReadMem(4 bytes @ 0xE0001000) -- CPU_WriteMem(4 bytes @ 0xE0002008) -- CPU_WriteMem(4 bytes @ 0xE000200C) -- CPU_WriteMem(4 bytes @ 0xE0002010) -- CPU_WriteMem(4 bytes @ 0xE0002014) -- CPU_WriteMem(4 bytes @ 0xE0002018) -- CPU_WriteMem(4 bytes @ 0xE000201C) -- CPU_WriteMem(4 bytes @ 0xE0001004) (0003ms, 0746ms total)
T322C 011:735 JLINK_IsHalted()  returns FALSE (0001ms, 0747ms total)
T322C 011:837 JLINK_IsHalted()  returns FALSE (0001ms, 0747ms total)
T322C 011:939 JLINK_IsHalted()  returns FALSE (0001ms, 0747ms total)
T322C 012:041 JLINK_IsHalted()  returns FALSE (0001ms, 0747ms total)
T322C 012:142 JLINK_IsHalted()  returns FALSE (0001ms, 0747ms total)
T322C 012:244 JLINK_IsHalted()  returns FALSE (0000ms, 0746ms total)
T322C 012:346 JLINK_IsHalted()  returns FALSE (0001ms, 0747ms total)
T322C 012:448 JLINK_IsHalted()  returns FALSE (0001ms, 0747ms total)
T322C 012:550 JLINK_IsHalted()  returns FALSE (0001ms, 0747ms total)
T322C 012:652 JLINK_IsHalted()  returns FALSE (0001ms, 0747ms total)
T322C 012:754 JLINK_IsHalted()  returns FALSE (0000ms, 0746ms total)
T322C 012:856 JLINK_IsHalted()  returns FALSE (0001ms, 0747ms total)
T322C 012:957 JLINK_IsHalted()  returns FALSE (0001ms, 0747ms total)
T322C 013:059 JLINK_IsHalted()  returns FALSE (0001ms, 0747ms total)
T322C 013:161 JLINK_IsHalted()  returns FALSE (0000ms, 0746ms total)
T322C 013:262 JLINK_IsHalted()  returns FALSE (0001ms, 0747ms total)
T322C 013:364 JLINK_IsHalted()  returns FALSE (0001ms, 0747ms total)
T322C 013:467 JLINK_IsHalted()  returns FALSE (0000ms, 0746ms total)
T322C 013:569 JLINK_IsHalted()  returns FALSE (0001ms, 0747ms total)
T322C 013:671 JLINK_IsHalted()  returns FALSE (0001ms, 0747ms total)
T322C 013:772 JLINK_IsHalted()  returns FALSE (0001ms, 0747ms total)
T322C 013:873 JLINK_IsHalted()  returns FALSE (0001ms, 0747ms total)
T322C 013:975 JLINK_IsHalted()  returns FALSE (0001ms, 0747ms total)
T322C 014:076 JLINK_IsHalted()  returns FALSE (0001ms, 0747ms total)
T322C 014:178 JLINK_IsHalted()  returns FALSE (0001ms, 0747ms total)
T322C 014:279 JLINK_IsHalted()  returns FALSE (0001ms, 0747ms total)
T322C 014:381 JLINK_IsHalted()  returns FALSE (0001ms, 0747ms total)
T322C 014:483 JLINK_IsHalted()  returns FALSE (0001ms, 0747ms total)
T322C 014:586 JLINK_IsHalted()  returns FALSE (0002ms, 0748ms total)
T322C 014:689 JLINK_IsHalted()  returns FALSE (0000ms, 0746ms total)
T322C 014:791 JLINK_IsHalted()  returns FALSE (0001ms, 0747ms total)
T322C 014:893 JLINK_IsHalted()  returns FALSE (0000ms, 0746ms total)
T0564 014:893 JLINK_SetResetType(JLINKARM_CM3_RESET_TYPE_NORMAL)  returns JLINKARM_CM3_RESET_TYPE_NORMAL (0001ms, 0747ms total)
T0564 014:894 JLINK_ResetNoHalt() >0x10B TIF>Found SW-DP with ID 0x2BA01477 >0x0D TIF> >0x28 TIF> >0x0D TIF> >0x28 TIF> >0x0D TIF> >0x28 TIF> >0x0D TIF> >0x28 TIF> >0x0D TIF> >0x21 TIF> >0x0D TIF> >0x28 TIF> >0x0D TIF> >0x28 TIF> >0x0D TIF> >0x28 TIF> >0x0D TIF> >0x21 TIF> >0x0D TIF> >0x21 TIF> >0x0D TIF> >0x28 TIF> >0x0D TIF> >0x21 TIF> >0x0D TIF> >0x21 TIF> >0x0D TIF> >0x28 TIF> >0x0D TIF> >0x21 TIF> >0x0D TIF> >0x21 TIF> >0x0D TIF> >0x28 TIF> >0x0D TIF> >0x21 TIF> >0x0D TIF> >0x21 TIF> >0x0D TIF>
 >0x28 TIF> >0x0D TIF> >0x21 TIF> >0x0D TIF> >0x21 TIF> >0x0D TIF> >0x28 TIF> >0x0D TIF> >0x21 TIF> >0x0D TIF> >0x21 TIF> >0x10B TIF>Found SW-DP with ID 0x2BA01477 >0x0D TIF> >0x28 TIF> >0x0D TIF> >0x28 TIF> >0x0D TIF> >0x28 TIF> >0x0D TIF> >0x28 TIF> >0x0D TIF> >0x21 TIF> >0x0D TIF> >0x28 TIF>Using pre-configured AP[0] as AHB-AP to communicate with core >0x0D TIF> >0x28 TIF> >0x0D TIF> >0x21 TIF> >0x0D TIF> >0x21 TIF>AHB-AP ROM: 0xE00FF000 (Base addr. of first ROM table) >0x0D TIF> >0x28 TIF> >0x0D TIF>
 >0x28 TIF> >0x0D TIF> >0x28 TIF> >0x0D TIF> >0x21 TIF> >0x0D TIF> >0x21 TIF> >0x0D TIF> >0x28 TIF> >0x0D TIF> >0x21 TIF> >0x0D TIF> >0x21 TIF>CPUID reg: 0x410FC241. Implementer code: 0x41 (ARM)Found Cortex-M4 r0p1, Little endian. -- CPU_ReadMem(4 bytes @ 0xE000EDF0) -- CPU_ReadMem(4 bytes @ 0xE0002000)FPUnit: 6 code (BP) slots and 2 literal slots -- CPU_ReadMem(4 bytes @ 0xE000EDFC) -- CPU_ReadMem(4 bytes @ 0xE0001000) -- CPU_WriteMem(4 bytes @ 0xE0001000) -- CPU_ReadMem(4 bytes @ 0xE000ED88)
 -- CPU_WriteMem(4 bytes @ 0xE000ED88) -- CPU_ReadMem(4 bytes @ 0xE000ED88) -- CPU_WriteMem(4 bytes @ 0xE000ED88)CoreSight components:ROMTbl[0] @ E00FF000 -- CPU_ReadMem(16 bytes @ 0xE00FF000) -- CPU_ReadMem(16 bytes @ 0xE000EFF0) -- CPU_ReadMem(16 bytes @ 0xE000EFE0)ROMTbl[0][0]: E000E000, CID: B105E00D, PID: 000BB00C SCS -- CPU_ReadMem(16 bytes @ 0xE0001FF0) -- CPU_ReadMem(16 bytes @ 0xE0001FE0)ROMTbl[0][1]: E0001000, CID: B105E00D, PID: 003BB002 DWT -- CPU_ReadMem(16 bytes @ 0xE0002FF0)
